T0E94 4462:178 SEGGER J-Link V6.30h Log File (0000ms, 15873ms total)
T0E94 4462:178 DLL Compiled: Mar 16 2018 18:02:51 (0000ms, 15873ms total)
T0E94 4462:178 Logging started @ 2023-06-04 22:35 (0000ms, 15873ms total)
T0E94 4462:178 JLINK_SetWarnOutHandler(...) (0000ms, 15873ms total)
T0E94 4462:178 JLINK_OpenEx(...)
Firmware: J-Link ARM V8 compiled Nov 28 2014 13:44:46
Hardware: V8.00
S/N: 17935099
Feature(s): RDI,FlashDL,FlashBP,JFlash
TELNET listener socket opened on port 19021WEBSRV 
Starting webserver (0106ms, 15979ms total)
T0E94 4462:178 WEBSRV Webserver running on local port 19080 (0106ms, 15979ms total)
T0E94 4462:178   returns O.K. (0106ms, 15979ms total)
T0E94 4462:284 JLINK_GetEmuCaps()  returns 0xB9FF7BBF (0000ms, 15979ms total)
T0E94 4462:285 JLINK_TIF_GetAvailable(...) (0000ms, 15979ms total)
T0E94 4462:285 JLINK_SetErrorOutHandler(...) (0000ms, 15979ms total)
T0E94 4462:285 JLINK_ExecCommand("ProjectFile = "D:\github\stm32f4\stm32f407_mdk\MDK-ARM\JLinkSettings.ini"", ...).   returns 0x00 (0002ms, 15981ms total)
T0E94 4462:287 JLINK_ExecCommand("Device = STM32F407ZGTx", ...). Device "STM32F407ZG" selected.  returns 0x00 (0001ms, 15982ms total)
T0E94 4462:288 JLINK_ExecCommand("DisableConnectionTimeout", ...).   returns 0x01 (0000ms, 15982ms total)
T0E94 4462:288 JLINK_GetHardwareVersion()  returns 0x13880 (0000ms, 15982ms total)
T0E94 4462:288 JLINK_GetDLLVersion()  returns 63008 (0000ms, 15982ms total)
T0E94 4462:289 JLINK_GetFirmwareString(...) (0000ms, 15982ms total)
T0E94 4462:289 JLINK_GetDLLVersion()  returns 63008 (0000ms, 15982ms total)
T0E94 4462:289 JLINK_GetCompileDateTime() (0000ms, 15982ms total)
T0E94 4462:289 JLINK_GetFirmwareString(...) (0000ms, 15982ms total)
T0E94 4462:289 JLINK_GetHardwareVersion()  returns 0x13880 (0000ms, 15982ms total)
T0E94 4462:289 JLINK_TIF_Select(JLINKARM_TIF_SWD)  returns 0x00 (0001ms, 15983ms total)
T0E94 4462:290 JLINK_SetSpeed(5000) (0000ms, 15983ms total)
T0E94 4462:290 JLINK_GetId() >0x10B TIF>Found SW-DP with ID 0x2BA01477 >0x0D TIF> >0x28 TIF> >0x0D TIF> >0x28 TIF> >0x0D TIF> >0x28 TIF> >0x0D TIF> >0x28 TIF> >0x0D TIF> >0x21 TIF> >0x0D TIF> >0x28 TIF> >0x0D TIF> >0x28 TIF> >0x0D TIF> >0x28 TIF> >0x0D TIF> >0x21 TIF> >0x0D TIF> >0x21 TIF> >0x0D TIF> >0x28 TIF> >0x0D TIF> >0x21 TIF> >0x0D TIF> >0x21 TIF> >0x0D TIF> >0x28 TIF> >0x0D TIF> >0x21 TIF> >0x0D TIF> >0x21 TIF> >0x0D TIF> >0x28 TIF> >0x0D TIF> >0x21 TIF> >0x0D TIF> >0x21 TIF> >0x0D TIF>
 >0x28 TIF> >0x0D TIF> >0x21 TIF> >0x0D TIF> >0x21 TIF> >0x0D TIF> >0x28 TIF> >0x0D TIF> >0x21 TIF> >0x0D TIF> >0x21 TIF> >0x10B TIF>Found SW-DP with ID 0x2BA01477 >0x0D TIF> >0x28 TIF> >0x0D TIF> >0x28 TIF> >0x0D TIF> >0x28 TIF> >0x0D TIF> >0x28 TIF> >0x0D TIF> >0x21 TIF> >0x0D TIF> >0x28 TIF>Scanning AP map to find all available APs >0x0D TIF> >0x28 TIF> >0x0D TIF> >0x21 TIF> >0x0D TIF> >0x21 TIF> >0x0D TIF> >0x28 TIF> >0x0D TIF> >0x21 TIF> >0x0D TIF> >0x21 TIF>
AP[1]: Stopped AP scan as end of AP map has been reachedAP[0]: AHB-AP (IDR: 0x24770011)Iterating through AP map to find AHB-AP to use >0x42 TIF> >0x28 TIF> >0x0D TIF> >0x28 TIF> >0x0D TIF> >0x21 TIF> >0x0D TIF> >0x21 TIF> >0x42 TIF> >0x28 TIF> >0x0D TIF> >0x28 TIF> >0x0D TIF> >0x28 TIF> >0x0D TIF> >0x21 TIF> >0x0D TIF> >0x21 TIF>AP[0]: Core foundAP[0]: AHB-AP ROM base: 0xE00FF000 >0x0D TIF> >0x28 TIF> >0x0D TIF> >0x28 TIF> >0x0D TIF> >0x28 TIF> >0x0D TIF> >0x21 TIF> >0x0D TIF> >0x21 TIF>
CPUID register: 0x410FC241. Implementer code: 0x41 (ARM)Found Cortex-M4 r0p1, Little endian. -- CPU_ReadMem(4 bytes @ 0xE000EDF0) -- CPU_WriteMem(4 bytes @ 0xE000EDF0) -- CPU_ReadMem(4 bytes @ 0xE0002000)FPUnit: 6 code (BP) slots and 2 literal slots -- CPU_ReadMem(4 bytes @ 0xE000EDFC) -- CPU_WriteMem(4 bytes @ 0xE000EDFC) -- CPU_ReadMem(4 bytes @ 0xE0001000) -- CPU_WriteMem(4 bytes @ 0xE0001000) -- CPU_ReadMem(4 bytes @ 0xE000ED88) -- CPU_WriteMem(4 bytes @ 0xE000ED88)
 -- CPU_ReadMem(4 bytes @ 0xE000ED88) -- CPU_WriteMem(4 bytes @ 0xE000ED88)CoreSight components:ROMTbl[0] @ E00FF000 -- CPU_ReadMem(16 bytes @ 0xE00FF000) -- CPU_ReadMem(16 bytes @ 0xE000EFF0) -- CPU_ReadMem(16 bytes @ 0xE000EFE0)ROMTbl[0][0]: E000E000, CID: B105E00D, PID: 000BB00C SCS-M7 -- CPU_ReadMem(16 bytes @ 0xE0001FF0) -- CPU_ReadMem(16 bytes @ 0xE0001FE0)ROMTbl[0][1]: E0001000, CID: B105E00D, PID: 003BB002 DWT -- CPU_ReadMem(16 bytes @ 0xE0002FF0) -- CPU_ReadMem(16 bytes @ 0xE0002FE0)
ROMTbl[0][2]: E0002000, CID: B105E00D, PID: 002BB003 FPB -- CPU_ReadMem(16 bytes @ 0xE0000FF0) -- CPU_ReadMem(16 bytes @ 0xE0000FE0)ROMTbl[0][3]: E0000000, CID: B105E00D, PID: 003BB001 ITM -- CPU_ReadMem(16 bytes @ 0xE00FF010) -- CPU_ReadMem(16 bytes @ 0xE0040FF0) -- CPU_ReadMem(16 bytes @ 0xE0040FE0)ROMTbl[0][4]: E0040000, CID: B105900D, PID: 000BB9A1 TPIU -- CPU_ReadMem(16 bytes @ 0xE0041FF0) -- CPU_ReadMem(16 bytes @ 0xE0041FE0)ROMTbl[0][5]: E0041000, CID: B105900D, PID: 000BB925 ETM >0x0D TIF>
 >0x21 TIF>  returns 0x2BA01477 (0151ms, 16134ms total)
T0E94 4462:441 JLINK_GetDLLVersion()  returns 63008 (0000ms, 16134ms total)
T0E94 4462:441 JLINK_CORE_GetFound()  returns 0xE0000FF (0000ms, 16134ms total)
T0E94 4462:441 JLINK_GetDebugInfo(0x100 = JLINKARM_ROM_TABLE_ADDR_INDEX) -- Value=0xE00FF000  returns 0x00 (0000ms, 16134ms total)
T0E94 4462:441 JLINK_GetDebugInfo(0x100 = JLINKARM_ROM_TABLE_ADDR_INDEX) -- Value=0xE00FF000  returns 0x00 (0000ms, 16134ms total)
T0E94 4462:441 JLINK_GetDebugInfo(0x101 = JLINKARM_DEBUG_INFO_ETM_ADDR_INDEX) -- Value=0xE0041000  returns 0x00 (0000ms, 16134ms total)
T0E94 4462:441 JLINK_ReadMemEx(0xE0041FD0, 0x0020 Bytes, ..., Flags = 0x02000004) -- CPU_ReadMem(32 bytes @ 0xE0041FD0) - Data: 04 00 00 00 00 00 00 00 00 00 00 00 00 00 00 00 ...  returns 0x20 (0001ms, 16135ms total)
T0E94 4462:442 JLINK_GetDebugInfo(0x102 = JLINKARM_DEBUG_INFO_MTB_ADDR_INDEX) -- Value=0x00000000  returns 0x00 (0000ms, 16135ms total)
T0E94 4462:442 JLINK_GetDebugInfo(0x103 = JLINKARM_DEBUG_INFO_TPIU_ADDR_INDEX) -- Value=0xE0040000  returns 0x00 (0000ms, 16135ms total)
T0E94 4462:442 JLINK_GetDebugInfo(0x104 = JLINKARM_DEBUG_INFO_ITM_ADDR_INDEX) -- Value=0xE0000000  returns 0x00 (0000ms, 16135ms total)
T0E94 4462:442 JLINK_GetDebugInfo(0x105 = JLINKARM_DEBUG_INFO_DWT_ADDR_INDEX) -- Value=0xE0001000  returns 0x00 (0000ms, 16135ms total)
T0E94 4462:442 JLINK_GetDebugInfo(0x106 = JLINKARM_DEBUG_INFO_FPB_ADDR_INDEX) -- Value=0xE0002000  returns 0x00 (0000ms, 16135ms total)
T0E94 4462:442 JLINK_GetDebugInfo(0x107 = JLINKARM_DEBUG_INFO_NVIC_ADDR_INDEX) -- Value=0xE000E000  returns 0x00 (0000ms, 16135ms total)
T0E94 4462:442 JLINK_GetDebugInfo(0x10C = JLINKARM_DEBUG_INFO_DBG_ADDR_INDEX) -- Value=0xE000EDF0  returns 0x00 (0000ms, 16135ms total)
T0E94 4462:442 JLINK_GetDebugInfo(0x01 = Unknown) -- Value=0x00000001  returns 0x00 (0000ms, 16135ms total)
T0E94 4462:442 JLINK_ReadMemU32(0xE000ED00, 0x0001 Items, ...) -- CPU_ReadMem(4 bytes @ 0xE000ED00) - Data: 41 C2 0F 41  returns 0x01 (0000ms, 16135ms total)
T0E94 4462:442 JLINK_GetDebugInfo(0x10F = JLINKARM_DEBUG_INFO_HAS_CORTEX_M_SECURITY_EXT_INDEX) -- Value=0x00000000  returns 0x00 (0000ms, 16135ms total)
T0E94 4462:442 JLINK_SetResetType(JLINKARM_CM3_RESET_TYPE_NORMAL)  returns JLINKARM_CM3_RESET_TYPE_NORMAL (0001ms, 16136ms total)
T0E94 4462:443 JLINK_Reset() -- CPU is running -- CPU_WriteMem(4 bytes @ 0xE000EDF0) -- CPU is running -- CPU_WriteMem(4 bytes @ 0xE000EDFC)Reset: Halt core after reset via DEMCR.VC_CORERESET. >0x35 TIF>Reset: Reset device via AIRCR.SYSRESETREQ. -- CPU is running -- CPU_WriteMem(4 bytes @ 0xE000ED0C) >0x0D TIF> >0x28 TIF> -- CPU_ReadMem(4 bytes @ 0xE000EDF0) -- CPU_ReadMem(4 bytes @ 0xE000EDF0) -- CPU is running -- CPU_WriteMem(4 bytes @ 0xE000EDF0) -- CPU is running -- CPU_WriteMem(4 bytes @ 0xE000EDFC)
 -- CPU_ReadMem(4 bytes @ 0xE000EDF0) -- CPU_WriteMem(4 bytes @ 0xE0002000) -- CPU_ReadMem(4 bytes @ 0xE000EDFC) -- CPU_ReadMem(4 bytes @ 0xE0001000) (0069ms, 16205ms total)
T0E94 4462:512 JLINK_ReadReg(R15 (PC))  returns 0x080001A0 (0000ms, 16205ms total)
T0E94 4462:512 JLINK_ReadReg(XPSR)  returns 0x01000000 (0000ms, 16205ms total)
T0E94 4462:512 JLINK_Halt()  returns 0x00 (0000ms, 16205ms total)
T0E94 4462:512 JLINK_ReadMemU32(0xE000EDF0, 0x0001 Items, ...) -- CPU_ReadMem(4 bytes @ 0xE000EDF0) - Data: 03 00 03 00  returns 0x01 (0001ms, 16206ms total)
T0E94 4462:513 JLINK_WriteU32(0xE000EDF0, 0xA05F0003) -- CPU_WriteMem(4 bytes @ 0xE000EDF0)  returns 0x00 (0001ms, 16207ms total)
T0E94 4462:514 JLINK_WriteU32(0xE000EDFC, 0x01000000) -- CPU_WriteMem(4 bytes @ 0xE000EDFC)  returns 0x00 (0001ms, 16208ms total)
T0E94 4462:515 JLINK_GetHWStatus(...)  returns 0x00 (0001ms, 16209ms total)
T0E94 4462:516 JLINK_GetNumBPUnits(Type = 0xFFFFFF00)  returns 0x06 (0000ms, 16209ms total)
T0E94 4462:516 JLINK_GetNumBPUnits(Type = 0xF0)  returns 0x2000 (0000ms, 16209ms total)
T0E94 4462:516 JLINK_GetNumWPUnits()  returns 0x04 (0000ms, 16209ms total)
T0E94 4462:516 JLINK_GetSpeed()  returns 0xFA0 (0000ms, 16209ms total)
T0E94 4462:516 JLINK_ReadMemU32(0xE000E004, 0x0001 Items, ...) -- CPU_ReadMem(4 bytes @ 0xE000E004) - Data: 02 00 00 00  returns 0x01 (0001ms, 16210ms total)
T0E94 4462:517 JLINK_ReadMemU32(0xE000E004, 0x0001 Items, ...) -- CPU_ReadMem(4 bytes @ 0xE000E004) - Data: 02 00 00 00  returns 0x01 (0001ms, 16211ms total)
T0E94 4462:518 JLINK_WriteMemEx(0xE0001000, 0x001C Bytes, ..., Flags = 0x02000004) - Data: 01 00 00 00 00 00 00 00 00 00 00 00 00 00 00 00 ... -- CPU_WriteMem(28 bytes @ 0xE0001000)  returns 0x1C (0001ms, 16212ms total)
T0E94 4462:519 JLINK_ReadReg(R15 (PC))  returns 0x080001A0 (0000ms, 16212ms total)
T0E94 4462:519 JLINK_ReadReg(XPSR)  returns 0x01000000 (0000ms, 16212ms total)
T0E94 4462:531 JLINK_ReadMemEx(0xE0001004, 0x0004 Bytes, ..., Flags = 0x02000000) - Data: 00 00 00 00  returns 0x04 (0000ms, 16212ms total)
T0E94 4462:651 JLINK_SetResetType(JLINKARM_CM3_RESET_TYPE_NORMAL)  returns JLINKARM_CM3_RESET_TYPE_NORMAL (0000ms, 16212ms total)
T0E94 4462:651 JLINK_Reset() -- CPU_WriteMem(4 bytes @ 0xE000EDF0) -- CPU_WriteMem(4 bytes @ 0xE000EDFC)Reset: Halt core after reset via DEMCR.VC_CORERESET. >0x35 TIF>Reset: Reset device via AIRCR.SYSRESETREQ. -- CPU_WriteMem(4 bytes @ 0xE000ED0C) >0x0D TIF> >0x28 TIF> -- CPU_ReadMem(4 bytes @ 0xE000EDF0) -- CPU_ReadMem(4 bytes @ 0xE000EDF0) -- CPU_WriteMem(4 bytes @ 0xE000EDF0) -- CPU_WriteMem(4 bytes @ 0xE000EDFC) -- CPU_ReadMem(4 bytes @ 0xE000EDF0) -- CPU_WriteMem(4 bytes @ 0xE0002000)
 -- CPU_ReadMem(4 bytes @ 0xE000EDFC) -- CPU_ReadMem(4 bytes @ 0xE0001000) (0071ms, 16283ms total)
T0E94 4462:722 JLINK_ReadReg(R15 (PC))  returns 0x080001A0 (0000ms, 16283ms total)
T0E94 4462:722 JLINK_ReadReg(XPSR)  returns 0x01000000 (0000ms, 16283ms total)
T0E94 4462:723 JLINK_ReadMemEx(0x08000188, 0x003C Bytes, ..., Flags = 0x02000000) -- CPU_ReadMem(128 bytes @ 0x08000180) -- Updating C cache (128 bytes @ 0x08000180) -- Read from C cache (60 bytes @ 0x08000188) - Data: DF F8 10 D0 00 F0 22 FB 00 48 00 47 D7 08 00 08 ...  returns 0x3C (0002ms, 16285ms total)
T0E94 4464:634 JLINK_ReadReg(R0)  returns 0x00000000 (0001ms, 16286ms total)
T0E94 4464:635 JLINK_ReadReg(R1)  returns 0x00000000 (0000ms, 16286ms total)
T0E94 4464:635 JLINK_ReadReg(R2)  returns 0x00000000 (0000ms, 16286ms total)
T0E94 4464:635 JLINK_ReadReg(R3)  returns 0x00000000 (0000ms, 16286ms total)
T0E94 4464:635 JLINK_ReadReg(R4)  returns 0x00000000 (0000ms, 16286ms total)
T0E94 4464:635 JLINK_ReadReg(R5)  returns 0x00000000 (0000ms, 16286ms total)
T0E94 4464:635 JLINK_ReadReg(R6)  returns 0x00000000 (0000ms, 16286ms total)
T0E94 4464:635 JLINK_ReadReg(R7)  returns 0x00000000 (0000ms, 16286ms total)
T0E94 4464:635 JLINK_ReadReg(R8)  returns 0x00000000 (0000ms, 16286ms total)
T0E94 4464:635 JLINK_ReadReg(R9)  returns 0x00000000 (0000ms, 16286ms total)
T0E94 4464:635 JLINK_ReadReg(R10)  returns 0x00000000 (0000ms, 16286ms total)
T0E94 4464:635 JLINK_ReadReg(R11)  returns 0x00000000 (0000ms, 16286ms total)
T0E94 4464:635 JLINK_ReadReg(R12)  returns 0x00000000 (0000ms, 16286ms total)
T0E94 4464:635 JLINK_ReadReg(R13 (SP))  returns 0x20005DF8 (0000ms, 16286ms total)
T0E94 4464:635 JLINK_ReadReg(R14)  returns 0xFFFFFFFF (0000ms, 16286ms total)
T0E94 4464:635 JLINK_ReadReg(R15 (PC))  returns 0x080001A0 (0000ms, 16286ms total)
T0E94 4464:635 JLINK_ReadReg(XPSR)  returns 0x01000000 (0000ms, 16286ms total)
T0E94 4464:635 JLINK_ReadReg(MSP)  returns 0x20005DF8 (0000ms, 16286ms total)
T0E94 4464:635 JLINK_ReadReg(PSP)  returns 0x00000000 (0000ms, 16286ms total)
T0E94 4464:635 JLINK_ReadReg(CFBP)  returns 0x00000000 (0000ms, 16286ms total)
T0E94 4464:635 JLINK_ReadReg(FPSCR)  returns 0x00000000 (0004ms, 16290ms total)
T0E94 4464:639 JLINK_ReadReg(FPS0)  returns 0x00000000 (0000ms, 16290ms total)
T0E94 4464:639 JLINK_ReadReg(FPS1)  returns 0x00000000 (0000ms, 16290ms total)
T0E94 4464:639 JLINK_ReadReg(FPS2)  returns 0x00000000 (0000ms, 16290ms total)
T0E94 4464:639 JLINK_ReadReg(FPS3)  returns 0x00000000 (0000ms, 16290ms total)
T0E94 4464:639 JLINK_ReadReg(FPS4)  returns 0x00000000 (0000ms, 16290ms total)
T0E94 4464:639 JLINK_ReadReg(FPS5)  returns 0x00000000 (0000ms, 16290ms total)
T0E94 4464:639 JLINK_ReadReg(FPS6)  returns 0x00000000 (0000ms, 16290ms total)
T0E94 4464:639 JLINK_ReadReg(FPS7)  returns 0x00000000 (0000ms, 16290ms total)
T0E94 4464:639 JLINK_ReadReg(FPS8)  returns 0x00000000 (0000ms, 16290ms total)
T0E94 4464:639 JLINK_ReadReg(FPS9)  returns 0x00000000 (0000ms, 16290ms total)
T0E94 4464:639 JLINK_ReadReg(FPS10)  returns 0x00000000 (0000ms, 16290ms total)
T0E94 4464:639 JLINK_ReadReg(FPS11)  returns 0x00000000 (0000ms, 16290ms total)
T0E94 4464:639 JLINK_ReadReg(FPS12)  returns 0x00000000 (0000ms, 16290ms total)
T0E94 4464:639 JLINK_ReadReg(FPS13)  returns 0x00000000 (0000ms, 16290ms total)
T0E94 4464:639 JLINK_ReadReg(FPS14)  returns 0x00000000 (0000ms, 16290ms total)
T0E94 4464:639 JLINK_ReadReg(FPS15)  returns 0x00000000 (0000ms, 16290ms total)
T0E94 4464:639 JLINK_ReadReg(FPS16)  returns 0x00000000 (0000ms, 16290ms total)
T0E94 4464:639 JLINK_ReadReg(FPS17)  returns 0x00000000 (0000ms, 16290ms total)
T0E94 4464:639 JLINK_ReadReg(FPS18)  returns 0x00000000 (0000ms, 16290ms total)
T0E94 4464:639 JLINK_ReadReg(FPS19)  returns 0x00000000 (0000ms, 16290ms total)
T0E94 4464:639 JLINK_ReadReg(FPS20)  returns 0x00000000 (0000ms, 16290ms total)
T0E94 4464:639 JLINK_ReadReg(FPS21)  returns 0x00000000 (0000ms, 16290ms total)
T0E94 4464:639 JLINK_ReadReg(FPS22)  returns 0x00000000 (0000ms, 16290ms total)
T0E94 4464:639 JLINK_ReadReg(FPS23)  returns 0x00000000 (0000ms, 16290ms total)
T0E94 4464:639 JLINK_ReadReg(FPS24)  returns 0x00000000 (0000ms, 16290ms total)
T0E94 4464:639 JLINK_ReadReg(FPS25)  returns 0x00000000 (0000ms, 16290ms total)
T0E94 4464:639 JLINK_ReadReg(FPS26)  returns 0x00000000 (0000ms, 16290ms total)
T0E94 4464:639 JLINK_ReadReg(FPS27)  returns 0x00000000 (0000ms, 16290ms total)
T0E94 4464:639 JLINK_ReadReg(FPS28)  returns 0x00000000 (0000ms, 16290ms total)
T0E94 4464:639 JLINK_ReadReg(FPS29)  returns 0x00000000 (0000ms, 16290ms total)
T0E94 4464:639 JLINK_ReadReg(FPS30)  returns 0x00000000 (0000ms, 16290ms total)
T0E94 4464:639 JLINK_ReadReg(FPS31)  returns 0x00000000 (0000ms, 16290ms total)
T3050 4464:746 JLINK_ReadMemEx(0x080001A0, 0x0002 Bytes, ..., Flags = 0x02000000) -- Read from C cache (2 bytes @ 0x080001A0) - Data: 06 48  returns 0x02 (0000ms, 16290ms total)
T3050 4464:746 JLINK_SetBPEx(Addr = 0x080008D6, Type = 0xFFFFFFF2)  returns 0x00000001 (0000ms, 16290ms total)
T3050 4464:746 JLINK_SetBPEx(Addr = 0x08005A36, Type = 0xFFFFFFF2)  returns 0x00000002 (0000ms, 16290ms total)
T3050 4464:746 JLINK_SetBPEx(Addr = 0x08005972, Type = 0xFFFFFFF2)  returns 0x00000003 (0000ms, 16290ms total)
T3050 4464:746 JLINK_SetBPEx(Addr = 0x080058C8, Type = 0xFFFFFFF2)  returns 0x00000004 (0000ms, 16290ms total)
T3050 4464:746 JLINK_Go() -- CPU_WriteMem(4 bytes @ 0xE0002000) -- CPU_WriteMem(4 bytes @ 0xE0002000) -- CPU_WriteMem(4 bytes @ 0xE0002000) -- CPU_WriteMem(4 bytes @ 0xE0002000) -- CPU_ReadMem(4 bytes @ 0xE0001000) -- CPU_WriteMem(4 bytes @ 0xE0002008) -- CPU_WriteMem(4 bytes @ 0xE000200C) -- CPU_WriteMem(4 bytes @ 0xE0002010) -- CPU_WriteMem(4 bytes @ 0xE0002014) -- CPU_WriteMem(4 bytes @ 0xE0002018) -- CPU_WriteMem(4 bytes @ 0xE000201C) -- CPU_WriteMem(4 bytes @ 0xE0001004) (0005ms, 16295ms total)
T3050 4464:852 JLINK_IsHalted()  returns TRUE (0003ms, 16298ms total)
T3050 4464:855 JLINK_Halt()  returns 0x00 (0000ms, 16295ms total)
T3050 4464:855 JLINK_IsHalted()  returns TRUE (0000ms, 16295ms total)
T3050 4464:855 JLINK_IsHalted()  returns TRUE (0000ms, 16295ms total)
T3050 4464:855 JLINK_IsHalted()  returns TRUE (0000ms, 16295ms total)
T3050 4464:855 JLINK_ReadReg(R15 (PC))  returns 0x080008D6 (0000ms, 16295ms total)
T3050 4464:855 JLINK_ReadReg(XPSR)  returns 0x61000000 (0000ms, 16295ms total)
T3050 4464:855 JLINK_ClrBPEx(BPHandle = 0x00000001)  returns 0x00 (0000ms, 16295ms total)
T3050 4464:855 JLINK_ClrBPEx(BPHandle = 0x00000002)  returns 0x00 (0000ms, 16295ms total)
T3050 4464:855 JLINK_ClrBPEx(BPHandle = 0x00000003)  returns 0x00 (0000ms, 16295ms total)
T3050 4464:855 JLINK_ClrBPEx(BPHandle = 0x00000004)  returns 0x00 (0000ms, 16295ms total)
T3050 4464:855 JLINK_ReadMemU32(0xE000ED30, 0x0001 Items, ...) -- CPU_ReadMem(4 bytes @ 0xE000ED30) - Data: 03 00 00 00  returns 0x01 (0000ms, 16295ms total)
T3050 4464:855 JLINK_ReadMemU32(0xE0001028, 0x0001 Items, ...) -- CPU_ReadMem(4 bytes @ 0xE0001028) - Data: 00 00 00 00  returns 0x01 (0001ms, 16296ms total)
T3050 4464:856 JLINK_ReadMemU32(0xE0001038, 0x0001 Items, ...) -- CPU_ReadMem(4 bytes @ 0xE0001038) - Data: 00 02 00 00  returns 0x01 (0001ms, 16297ms total)
T3050 4464:857 JLINK_ReadMemU32(0xE0001048, 0x0001 Items, ...) -- CPU_ReadMem(4 bytes @ 0xE0001048) - Data: 00 00 00 00  returns 0x01 (0000ms, 16297ms total)
T3050 4464:857 JLINK_ReadMemU32(0xE0001058, 0x0001 Items, ...) -- CPU_ReadMem(4 bytes @ 0xE0001058) - Data: 00 00 00 00  returns 0x01 (0001ms, 16298ms total)
T3050 4464:858 JLINK_ReadReg(R0)  returns 0x080008D7 (0000ms, 16298ms total)
T3050 4464:858 JLINK_ReadReg(R1)  returns 0x20005DF8 (0000ms, 16298ms total)
T3050 4464:858 JLINK_ReadReg(R2)  returns 0x00000000 (0000ms, 16298ms total)
T3050 4464:858 JLINK_ReadReg(R3)  returns 0x08003265 (0000ms, 16298ms total)
T3050 4464:858 JLINK_ReadReg(R4)  returns 0x080062D0 (0000ms, 16298ms total)
T3050 4464:858 JLINK_ReadReg(R5)  returns 0x080062D0 (0000ms, 16298ms total)
T3050 4464:858 JLINK_ReadReg(R6)  returns 0x00000000 (0000ms, 16298ms total)
T3050 4464:858 JLINK_ReadReg(R7)  returns 0x00000000 (0000ms, 16298ms total)
T3050 4464:858 JLINK_ReadReg(R8)  returns 0x00000000 (0000ms, 16298ms total)
T3050 4464:858 JLINK_ReadReg(R9)  returns 0x00000000 (0000ms, 16298ms total)
T3050 4464:858 JLINK_ReadReg(R10)  returns 0x00000000 (0000ms, 16298ms total)
T3050 4464:858 JLINK_ReadReg(R11)  returns 0x00000000 (0000ms, 16298ms total)
T3050 4464:858 JLINK_ReadReg(R12)  returns 0x00000000 (0000ms, 16298ms total)
T3050 4464:858 JLINK_ReadReg(R13 (SP))  returns 0x20005DF8 (0000ms, 16298ms total)
T3050 4464:858 JLINK_ReadReg(R14)  returns 0x080007F1 (0000ms, 16298ms total)
T3050 4464:858 JLINK_ReadReg(R15 (PC))  returns 0x080008D6 (0000ms, 16298ms total)
T3050 4464:858 JLINK_ReadReg(XPSR)  returns 0x61000000 (0000ms, 16298ms total)
T3050 4464:858 JLINK_ReadReg(MSP)  returns 0x20005DF8 (0000ms, 16298ms total)
T3050 4464:858 JLINK_ReadReg(PSP)  returns 0x00000000 (0000ms, 16298ms total)
T3050 4464:858 JLINK_ReadReg(CFBP)  returns 0x00000000 (0000ms, 16298ms total)
T3050 4464:858 JLINK_ReadReg(FPSCR)  returns 0x00000000 (0004ms, 16302ms total)
T3050 4464:862 JLINK_ReadReg(FPS0)  returns 0x00000000 (0000ms, 16302ms total)
T3050 4464:862 JLINK_ReadReg(FPS1)  returns 0x00000000 (0000ms, 16302ms total)
T3050 4464:862 JLINK_ReadReg(FPS2)  returns 0x00000000 (0000ms, 16302ms total)
T3050 4464:862 JLINK_ReadReg(FPS3)  returns 0x00000000 (0000ms, 16302ms total)
T3050 4464:862 JLINK_ReadReg(FPS4)  returns 0x00000000 (0000ms, 16302ms total)
T3050 4464:862 JLINK_ReadReg(FPS5)  returns 0x00000000 (0000ms, 16302ms total)
T3050 4464:862 JLINK_ReadReg(FPS6)  returns 0x00000000 (0000ms, 16302ms total)
T3050 4464:862 JLINK_ReadReg(FPS7)  returns 0x00000000 (0000ms, 16302ms total)
T3050 4464:862 JLINK_ReadReg(FPS8)  returns 0x00000000 (0000ms, 16302ms total)
T3050 4464:862 JLINK_ReadReg(FPS9)  returns 0x00000000 (0000ms, 16302ms total)
T3050 4464:862 JLINK_ReadReg(FPS10)  returns 0x00000000 (0000ms, 16302ms total)
T3050 4464:862 JLINK_ReadReg(FPS11)  returns 0x00000000 (0000ms, 16302ms total)
T3050 4464:862 JLINK_ReadReg(FPS12)  returns 0x00000000 (0000ms, 16302ms total)
T3050 4464:862 JLINK_ReadReg(FPS13)  returns 0x00000000 (0000ms, 16302ms total)
T3050 4464:862 JLINK_ReadReg(FPS14)  returns 0x00000000 (0000ms, 16302ms total)
T3050 4464:862 JLINK_ReadReg(FPS15)  returns 0x00000000 (0000ms, 16302ms total)
T3050 4464:862 JLINK_ReadReg(FPS16)  returns 0x00000000 (0000ms, 16302ms total)
T3050 4464:862 JLINK_ReadReg(FPS17)  returns 0x00000000 (0000ms, 16302ms total)
T3050 4464:862 JLINK_ReadReg(FPS18)  returns 0x00000000 (0000ms, 16302ms total)
T3050 4464:862 JLINK_ReadReg(FPS19)  returns 0x00000000 (0000ms, 16302ms total)
T3050 4464:862 JLINK_ReadReg(FPS20)  returns 0x00000000 (0000ms, 16302ms total)
T3050 4464:862 JLINK_ReadReg(FPS21)  returns 0x00000000 (0000ms, 16302ms total)
T3050 4464:862 JLINK_ReadReg(FPS22)  returns 0x00000000 (0000ms, 16302ms total)
T3050 4464:862 JLINK_ReadReg(FPS23)  returns 0x00000000 (0000ms, 16302ms total)
T3050 4464:862 JLINK_ReadReg(FPS24)  returns 0x00000000 (0000ms, 16302ms total)
T3050 4464:862 JLINK_ReadReg(FPS25)  returns 0x00000000 (0000ms, 16302ms total)
T3050 4464:862 JLINK_ReadReg(FPS26)  returns 0x00000000 (0000ms, 16302ms total)
T3050 4464:862 JLINK_ReadReg(FPS27)  returns 0x00000000 (0000ms, 16302ms total)
T3050 4464:862 JLINK_ReadReg(FPS28)  returns 0x00000000 (0000ms, 16302ms total)
T3050 4464:862 JLINK_ReadReg(FPS29)  returns 0x00000000 (0000ms, 16302ms total)
T3050 4464:862 JLINK_ReadReg(FPS30)  returns 0x00000000 (0000ms, 16302ms total)
T3050 4464:862 JLINK_ReadReg(FPS31)  returns 0x00000000 (0000ms, 16302ms total)
T0E94 4464:877 JLINK_ReadMemEx(0x080007D6, 0x0002 Bytes, ..., Flags = 0x02000000) -- CPU_ReadMem(64 bytes @ 0x080007C0) -- Updating C cache (64 bytes @ 0x080007C0) -- Read from C cache (2 bytes @ 0x080007D6) - Data: 07 4D  returns 0x02 (0001ms, 16303ms total)
T0E94 4464:878 JLINK_ReadMemEx(0x080007D8, 0x0028 Bytes, ..., Flags = 0x02000000) -- Read from C cache (40 bytes @ 0x080007D8) - Data: 06 E0 E0 68 40 F0 01 03 94 E8 07 00 98 47 10 34 ...  returns 0x28 (0000ms, 16303ms total)
T0E94 4464:878 JLINK_ReadMemEx(0x08000800, 0x0014 Bytes, ..., Flags = 0x02000000) -- CPU_ReadMem(64 bytes @ 0x08000800) -- Updating C cache (64 bytes @ 0x08000800) -- Read from C cache (20 bytes @ 0x08000800) - Data: 41 FA 02 F0 43 EA E0 73 06 E0 41 FA 02 F3 D0 40 ...  returns 0x14 (0002ms, 16305ms total)
T0E94 4464:880 JLINK_ReadMemEx(0x08000814, 0x003C Bytes, ..., Flags = 0x02000000) -- CPU_ReadMem(64 bytes @ 0x08000840) -- Updating C cache (64 bytes @ 0x08000840) -- Read from C cache (60 bytes @ 0x08000814) - Data: 91 40 08 43 19 46 70 47 10 B5 14 1E 73 F1 00 04 ...  returns 0x3C (0001ms, 16306ms total)
T0E94 4464:881 JLINK_ReadMemEx(0x08000850, 0x003C Bytes, ..., Flags = 0x02000000) -- CPU_ReadMem(64 bytes @ 0x08000880) -- Updating C cache (64 bytes @ 0x08000880) -- Read from C cache (60 bytes @ 0x08000850) - Data: 90 46 FF F7 E8 FD 04 46 0F 46 40 EA 0A 00 41 EA ...  returns 0x3C (0002ms, 16308ms total)
T0E94 4464:883 JLINK_ReadMemEx(0x0800088C, 0x003C Bytes, ..., Flags = 0x02000000) -- CPU_ReadMem(64 bytes @ 0x080008C0) -- Updating C cache (64 bytes @ 0x080008C0) -- Read from C cache (60 bytes @ 0x0800088C) - Data: 05 D0 01 20 04 E0 20 46 39 46 BD E8 F0 8D 00 20 ...  returns 0x3C (0001ms, 16309ms total)
T0E94 4464:884 JLINK_ReadMemEx(0x080008C8, 0x003C Bytes, ..., Flags = 0x02000000) -- CPU_ReadMem(64 bytes @ 0x08000900) -- Updating C cache (64 bytes @ 0x08000900) -- Read from C cache (60 bytes @ 0x080008C8) - Data: DD E9 08 45 00 19 69 41 BD E8 F0 4D A2 E7 10 B5 ...  returns 0x3C (0002ms, 16311ms total)
T3050 4466:612 JLINK_ReadMemEx(0x080008D6, 0x0002 Bytes, ..., Flags = 0x02000000) -- Read from C cache (2 bytes @ 0x080008D6) - Data: 10 B5  returns 0x02 (0000ms, 16311ms total)
T3050 4466:612 JLINK_SetBPEx(Addr = 0x08005A36, Type = 0xFFFFFFF2)  returns 0x00000005 (0000ms, 16311ms total)
T3050 4466:612 JLINK_SetBPEx(Addr = 0x08005972, Type = 0xFFFFFFF2)  returns 0x00000006 (0000ms, 16311ms total)
T3050 4466:612 JLINK_SetBPEx(Addr = 0x080058C8, Type = 0xFFFFFFF2)  returns 0x00000007 (0000ms, 16311ms total)
T3050 4466:612 JLINK_Go() -- CPU_WriteMem(4 bytes @ 0xE0002000) -- CPU_WriteMem(4 bytes @ 0xE0002000) -- CPU_WriteMem(4 bytes @ 0xE0002000) -- CPU_ReadMem(4 bytes @ 0xE0001000) -- CPU_WriteMem(4 bytes @ 0xE0002008) -- CPU_WriteMem(4 bytes @ 0xE000200C) -- CPU_WriteMem(4 bytes @ 0xE0002010) -- CPU_WriteMem(4 bytes @ 0xE0002014) (0005ms, 16316ms total)
T3050 4466:718 JLINK_IsHalted()  returns TRUE (0003ms, 16319ms total)
T3050 4466:721 JLINK_Halt()  returns 0x00 (0000ms, 16316ms total)
T3050 4466:721 JLINK_IsHalted()  returns TRUE (0000ms, 16316ms total)
T3050 4466:721 JLINK_IsHalted()  returns TRUE (0000ms, 16316ms total)
T3050 4466:721 JLINK_IsHalted()  returns TRUE (0000ms, 16316ms total)
T3050 4466:721 JLINK_ReadReg(R15 (PC))  returns 0x080058C8 (0000ms, 16316ms total)
T3050 4466:721 JLINK_ReadReg(XPSR)  returns 0x61000000 (0000ms, 16316ms total)
T3050 4466:721 JLINK_ClrBPEx(BPHandle = 0x00000005)  returns 0x00 (0000ms, 16316ms total)
T3050 4466:721 JLINK_ClrBPEx(BPHandle = 0x00000006)  returns 0x00 (0000ms, 16316ms total)
T3050 4466:721 JLINK_ClrBPEx(BPHandle = 0x00000007)  returns 0x00 (0000ms, 16316ms total)
T3050 4466:721 JLINK_ReadMemU32(0xE000ED30, 0x0001 Items, ...) -- CPU_ReadMem(4 bytes @ 0xE000ED30) - Data: 03 00 00 00  returns 0x01 (0001ms, 16317ms total)
T3050 4466:722 JLINK_ReadMemU32(0xE0001028, 0x0001 Items, ...) -- CPU_ReadMem(4 bytes @ 0xE0001028) - Data: 00 00 00 00  returns 0x01 (0001ms, 16318ms total)
T3050 4466:723 JLINK_ReadMemU32(0xE0001038, 0x0001 Items, ...) -- CPU_ReadMem(4 bytes @ 0xE0001038) - Data: 00 02 00 00  returns 0x01 (0000ms, 16318ms total)
T3050 4466:723 JLINK_ReadMemU32(0xE0001048, 0x0001 Items, ...) -- CPU_ReadMem(4 bytes @ 0xE0001048) - Data: 00 00 00 00  returns 0x01 (0000ms, 16318ms total)
T3050 4466:723 JLINK_ReadMemU32(0xE0001058, 0x0001 Items, ...) -- CPU_ReadMem(4 bytes @ 0xE0001058) - Data: 00 00 00 00  returns 0x01 (0001ms, 16319ms total)
T3050 4466:724 JLINK_ReadReg(R0)  returns 0x00000005 (0000ms, 16319ms total)
T3050 4466:724 JLINK_ReadReg(R1)  returns 0x080060EC (0000ms, 16319ms total)
T3050 4466:724 JLINK_ReadReg(R2)  returns 0x00000000 (0000ms, 16319ms total)
T3050 4466:724 JLINK_ReadReg(R3)  returns 0x08004451 (0001ms, 16320ms total)
T3050 4466:725 JLINK_ReadReg(R4)  returns 0x080062D0 (0000ms, 16320ms total)
T3050 4466:725 JLINK_ReadReg(R5)  returns 0x080062D0 (0000ms, 16320ms total)
T3050 4466:725 JLINK_ReadReg(R6)  returns 0x00000000 (0000ms, 16320ms total)
T3050 4466:725 JLINK_ReadReg(R7)  returns 0x00000000 (0000ms, 16320ms total)
T3050 4466:725 JLINK_ReadReg(R8)  returns 0x00000000 (0000ms, 16320ms total)
T3050 4466:725 JLINK_ReadReg(R9)  returns 0x00000000 (0000ms, 16320ms total)
T3050 4466:725 JLINK_ReadReg(R10)  returns 0x00000000 (0000ms, 16320ms total)
T3050 4466:725 JLINK_ReadReg(R11)  returns 0x00000000 (0000ms, 16320ms total)
T3050 4466:725 JLINK_ReadReg(R12)  returns 0x00000000 (0000ms, 16320ms total)
T3050 4466:725 JLINK_ReadReg(R13 (SP))  returns 0x20005DE8 (0000ms, 16320ms total)
T3050 4466:725 JLINK_ReadReg(R14)  returns 0x080058C9 (0000ms, 16320ms total)
T3050 4466:725 JLINK_ReadReg(R15 (PC))  returns 0x080058C8 (0000ms, 16320ms total)
T3050 4466:725 JLINK_ReadReg(XPSR)  returns 0x61000000 (0000ms, 16320ms total)
T3050 4466:725 JLINK_ReadReg(MSP)  returns 0x20005DE8 (0000ms, 16320ms total)
T3050 4466:725 JLINK_ReadReg(PSP)  returns 0x00000000 (0000ms, 16320ms total)
T3050 4466:725 JLINK_ReadReg(CFBP)  returns 0x00000000 (0000ms, 16320ms total)
T3050 4466:725 JLINK_ReadReg(FPSCR)  returns 0x00000000 (0005ms, 16325ms total)
T3050 4466:730 JLINK_ReadReg(FPS0)  returns 0x00000000 (0000ms, 16325ms total)
T3050 4466:730 JLINK_ReadReg(FPS1)  returns 0x00000000 (0000ms, 16325ms total)
T3050 4466:730 JLINK_ReadReg(FPS2)  returns 0x00000000 (0000ms, 16325ms total)
T3050 4466:730 JLINK_ReadReg(FPS3)  returns 0x00000000 (0000ms, 16325ms total)
T3050 4466:730 JLINK_ReadReg(FPS4)  returns 0x00000000 (0000ms, 16325ms total)
T3050 4466:730 JLINK_ReadReg(FPS5)  returns 0x00000000 (0000ms, 16325ms total)
T3050 4466:730 JLINK_ReadReg(FPS6)  returns 0x00000000 (0000ms, 16325ms total)
T3050 4466:730 JLINK_ReadReg(FPS7)  returns 0x00000000 (0001ms, 16326ms total)
T3050 4466:731 JLINK_ReadReg(FPS8)  returns 0x00000000 (0000ms, 16326ms total)
T3050 4466:731 JLINK_ReadReg(FPS9)  returns 0x00000000 (0000ms, 16326ms total)
T3050 4466:731 JLINK_ReadReg(FPS10)  returns 0x00000000 (0000ms, 16326ms total)
T3050 4466:731 JLINK_ReadReg(FPS11)  returns 0x00000000 (0000ms, 16326ms total)
T3050 4466:731 JLINK_ReadReg(FPS12)  returns 0x00000000 (0000ms, 16326ms total)
T3050 4466:731 JLINK_ReadReg(FPS13)  returns 0x00000000 (0000ms, 16326ms total)
T3050 4466:731 JLINK_ReadReg(FPS14)  returns 0x00000000 (0000ms, 16326ms total)
T3050 4466:731 JLINK_ReadReg(FPS15)  returns 0x00000000 (0000ms, 16326ms total)
T3050 4466:731 JLINK_ReadReg(FPS16)  returns 0x00000000 (0000ms, 16326ms total)
T3050 4466:731 JLINK_ReadReg(FPS17)  returns 0x00000000 (0000ms, 16326ms total)
T3050 4466:731 JLINK_ReadReg(FPS18)  returns 0x00000000 (0000ms, 16326ms total)
T3050 4466:731 JLINK_ReadReg(FPS19)  returns 0x00000000 (0000ms, 16326ms total)
T3050 4466:731 JLINK_ReadReg(FPS20)  returns 0x00000000 (0000ms, 16326ms total)
T3050 4466:731 JLINK_ReadReg(FPS21)  returns 0x00000000 (0000ms, 16326ms total)
T3050 4466:731 JLINK_ReadReg(FPS22)  returns 0x00000000 (0000ms, 16326ms total)
T3050 4466:731 JLINK_ReadReg(FPS23)  returns 0x00000000 (0000ms, 16326ms total)
T3050 4466:731 JLINK_ReadReg(FPS24)  returns 0x00000000 (0000ms, 16326ms total)
T3050 4466:731 JLINK_ReadReg(FPS25)  returns 0x00000000 (0000ms, 16326ms total)
T3050 4466:731 JLINK_ReadReg(FPS26)  returns 0x00000000 (0000ms, 16326ms total)
T3050 4466:731 JLINK_ReadReg(FPS27)  returns 0x00000000 (0000ms, 16326ms total)
T3050 4466:731 JLINK_ReadReg(FPS28)  returns 0x00000000 (0000ms, 16326ms total)
T3050 4466:731 JLINK_ReadReg(FPS29)  returns 0x00000000 (0000ms, 16326ms total)
T3050 4466:731 JLINK_ReadReg(FPS30)  returns 0x00000000 (0000ms, 16326ms total)
T3050 4466:731 JLINK_ReadReg(FPS31)  returns 0x00000000 (0000ms, 16326ms total)
T0E94 4466:732 JLINK_ReadMemEx(0x20005DEC, 0x0004 Bytes, ..., Flags = 0x02000000) -- CPU_ReadMem(64 bytes @ 0x20005DC0) -- Updating C cache (64 bytes @ 0x20005DC0) -- Read from C cache (4 bytes @ 0x20005DEC) - Data: DD 08 00 08  returns 0x04 (0001ms, 16327ms total)
T0E94 4466:733 JLINK_ReadMemEx(0x20005DE8, 0x0004 Bytes, ..., Flags = 0x02000000) -- Read from C cache (4 bytes @ 0x20005DE8) - Data: D0 62 00 08  returns 0x04 (0000ms, 16327ms total)
T0E94 4466:733 JLINK_ReadMemEx(0x20005DF4, 0x0004 Bytes, ..., Flags = 0x02000000) -- Read from C cache (4 bytes @ 0x20005DF4) - Data: F1 07 00 08  returns 0x04 (0000ms, 16327ms total)
T0E94 4466:733 JLINK_ReadMemEx(0x20005DF0, 0x0004 Bytes, ..., Flags = 0x02000000) -- Read from C cache (4 bytes @ 0x20005DF0) - Data: D0 62 00 08  returns 0x04 (0000ms, 16327ms total)
T0E94 4466:747 JLINK_ReadMemEx(0x080058C4, 0x003C Bytes, ..., Flags = 0x02000000) -- CPU_ReadMem(64 bytes @ 0x080058C0) -- Updating C cache (64 bytes @ 0x080058C0) -- Read from C cache (60 bytes @ 0x080058C4) - Data: FF F7 F8 FA FF F7 64 FB FF F7 34 FB FE F7 24 FF ...  returns 0x3C (0002ms, 16329ms total)
T3050 4467:387 JLINK_ReadMemEx(0x080058C8, 0x0002 Bytes, ..., Flags = 0x02000000) -- Read from C cache (2 bytes @ 0x080058C8) - Data: FF F7  returns 0x02 (0000ms, 16329ms total)
T3050 4467:387 JLINK_Step() -- Read from C cache (2 bytes @ 0x080058C8) -- CPU_ReadMem(4 bytes @ 0xE000ED18) -- CPU_WriteMem(4 bytes @ 0xE000ED18) -- CPU_ReadMem(4 bytes @ 0xE000ED18) -- CPU_WriteMem(4 bytes @ 0xE000ED18) -- CPU_ReadMem(4 bytes @ 0xE0001004) -- Read from C cache (2 bytes @ 0x080058CA) -- Simulated  returns 0x00 (0003ms, 16332ms total)
T3050 4467:390 JLINK_ReadReg(R15 (PC))  returns 0x08004F94 (0000ms, 16332ms total)
T3050 4467:390 JLINK_ReadReg(XPSR)  returns 0x61000000 (0000ms, 16332ms total)
T3050 4467:390 JLINK_SetBPEx(Addr = 0x08005A36, Type = 0xFFFFFFF2)  returns 0x00000008 (0000ms, 16332ms total)
T3050 4467:390 JLINK_SetBPEx(Addr = 0x08005972, Type = 0xFFFFFFF2)  returns 0x00000009 (0000ms, 16332ms total)
T3050 4467:390 JLINK_SetBPEx(Addr = 0x080058C8, Type = 0xFFFFFFF2)  returns 0x0000000A (0000ms, 16332ms total)
T3050 4467:390 JLINK_Go() -- CPU_WriteMem(4 bytes @ 0xE0002000) -- CPU_WriteMem(4 bytes @ 0xE0002000) -- CPU_WriteMem(4 bytes @ 0xE0002000) -- CPU_ReadMem(4 bytes @ 0xE0001000) -- CPU_WriteMem(4 bytes @ 0xE0001004) (0003ms, 16335ms total)
T3050 4467:494 JLINK_IsHalted()  returns TRUE (0003ms, 16338ms total)
T3050 4467:498 JLINK_Halt()  returns 0x00 (0000ms, 16335ms total)
T3050 4467:498 JLINK_IsHalted()  returns TRUE (0000ms, 16335ms total)
T3050 4467:498 JLINK_IsHalted()  returns TRUE (0000ms, 16335ms total)
T3050 4467:498 JLINK_IsHalted()  returns TRUE (0000ms, 16335ms total)
T3050 4467:498 JLINK_ReadReg(R15 (PC))  returns 0x08005972 (0000ms, 16335ms total)
T3050 4467:498 JLINK_ReadReg(XPSR)  returns 0x81000000 (0000ms, 16335ms total)
T3050 4467:498 JLINK_ClrBPEx(BPHandle = 0x00000008)  returns 0x00 (0000ms, 16335ms total)
T3050 4467:498 JLINK_ClrBPEx(BPHandle = 0x00000009)  returns 0x00 (0000ms, 16335ms total)
T3050 4467:498 JLINK_ClrBPEx(BPHandle = 0x0000000A)  returns 0x00 (0000ms, 16335ms total)
T3050 4467:498 JLINK_ReadMemU32(0xE000ED30, 0x0001 Items, ...) -- CPU_ReadMem(4 bytes @ 0xE000ED30) - Data: 03 00 00 00  returns 0x01 (0001ms, 16336ms total)
T3050 4467:499 JLINK_ReadMemU32(0xE0001028, 0x0001 Items, ...) -- CPU_ReadMem(4 bytes @ 0xE0001028) - Data: 00 00 00 00  returns 0x01 (0001ms, 16337ms total)
T3050 4467:500 JLINK_ReadMemU32(0xE0001038, 0x0001 Items, ...) -- CPU_ReadMem(4 bytes @ 0xE0001038) - Data: 00 02 00 00  returns 0x01 (0001ms, 16338ms total)
T3050 4467:501 JLINK_ReadMemU32(0xE0001048, 0x0001 Items, ...) -- CPU_ReadMem(4 bytes @ 0xE0001048) - Data: 00 00 00 00  returns 0x01 (0001ms, 16339ms total)
T3050 4467:502 JLINK_ReadMemU32(0xE0001058, 0x0001 Items, ...) -- CPU_ReadMem(4 bytes @ 0xE0001058) - Data: 00 00 00 00  returns 0x01 (0001ms, 16340ms total)
T3050 4467:503 JLINK_ReadReg(R0)  returns 0x08005971 (0000ms, 16340ms total)
T3050 4467:503 JLINK_ReadReg(R1)  returns 0x00000000 (0000ms, 16340ms total)
T3050 4467:503 JLINK_ReadReg(R2)  returns 0x00000000 (0000ms, 16340ms total)
T3050 4467:503 JLINK_ReadReg(R3)  returns 0x00000000 (0000ms, 16340ms total)
T3050 4467:503 JLINK_ReadReg(R4)  returns 0x080062A8 (0000ms, 16340ms total)
T3050 4467:503 JLINK_ReadReg(R5)  returns 0xDEADBEEF (0000ms, 16340ms total)
T3050 4467:503 JLINK_ReadReg(R6)  returns 0xDEADBEEF (0000ms, 16340ms total)
T3050 4467:503 JLINK_ReadReg(R7)  returns 0xDEADBEEF (0000ms, 16340ms total)
T3050 4467:503 JLINK_ReadReg(R8)  returns 0xDEADBEEF (0000ms, 16340ms total)
T3050 4467:503 JLINK_ReadReg(R9)  returns 0xDEADBEEF (0000ms, 16340ms total)
T3050 4467:503 JLINK_ReadReg(R10)  returns 0xDEADBEEF (0000ms, 16340ms total)
T3050 4467:503 JLINK_ReadReg(R11)  returns 0xDEADBEEF (0000ms, 16340ms total)
T3050 4467:503 JLINK_ReadReg(R12)  returns 0x00000000 (0001ms, 16341ms total)
T3050 4467:504 JLINK_ReadReg(R13 (SP))  returns 0x200009C8 (0000ms, 16341ms total)
T3050 4467:504 JLINK_ReadReg(R14)  returns 0x08004767 (0000ms, 16341ms total)
T3050 4467:504 JLINK_ReadReg(R15 (PC))  returns 0x08005972 (0000ms, 16341ms total)
T3050 4467:504 JLINK_ReadReg(XPSR)  returns 0x81000000 (0000ms, 16341ms total)
T3050 4467:504 JLINK_ReadReg(MSP)  returns 0x20005DB8 (0000ms, 16341ms total)
T3050 4467:504 JLINK_ReadReg(PSP)  returns 0x200009C8 (0000ms, 16341ms total)
T3050 4467:504 JLINK_ReadReg(CFBP)  returns 0x02000000 (0000ms, 16341ms total)
T3050 4467:504 JLINK_ReadReg(FPSCR)  returns 0x00000000 (0004ms, 16345ms total)
T3050 4467:508 JLINK_ReadReg(FPS0)  returns 0x00000000 (0000ms, 16345ms total)
T3050 4467:508 JLINK_ReadReg(FPS1)  returns 0x00000000 (0000ms, 16345ms total)
T3050 4467:508 JLINK_ReadReg(FPS2)  returns 0x00000000 (0000ms, 16345ms total)
T3050 4467:508 JLINK_ReadReg(FPS3)  returns 0x00000000 (0001ms, 16346ms total)
T3050 4467:509 JLINK_ReadReg(FPS4)  returns 0x00000000 (0000ms, 16346ms total)
T3050 4467:509 JLINK_ReadReg(FPS5)  returns 0x00000000 (0000ms, 16346ms total)
T3050 4467:509 JLINK_ReadReg(FPS6)  returns 0x00000000 (0000ms, 16346ms total)
T3050 4467:509 JLINK_ReadReg(FPS7)  returns 0x00000000 (0000ms, 16346ms total)
T3050 4467:509 JLINK_ReadReg(FPS8)  returns 0x00000000 (0000ms, 16346ms total)
T3050 4467:509 JLINK_ReadReg(FPS9)  returns 0x00000000 (0000ms, 16346ms total)
T3050 4467:509 JLINK_ReadReg(FPS10)  returns 0x00000000 (0000ms, 16346ms total)
T3050 4467:509 JLINK_ReadReg(FPS11)  returns 0x00000000 (0000ms, 16346ms total)
T3050 4467:509 JLINK_ReadReg(FPS12)  returns 0x00000000 (0000ms, 16346ms total)
T3050 4467:509 JLINK_ReadReg(FPS13)  returns 0x00000000 (0000ms, 16346ms total)
T3050 4467:509 JLINK_ReadReg(FPS14)  returns 0x00000000 (0000ms, 16346ms total)
T3050 4467:509 JLINK_ReadReg(FPS15)  returns 0x00000000 (0000ms, 16346ms total)
T3050 4467:509 JLINK_ReadReg(FPS16)  returns 0x00000000 (0000ms, 16346ms total)
T3050 4467:509 JLINK_ReadReg(FPS17)  returns 0x00000000 (0000ms, 16346ms total)
T3050 4467:509 JLINK_ReadReg(FPS18)  returns 0x00000000 (0000ms, 16346ms total)
T3050 4467:509 JLINK_ReadReg(FPS19)  returns 0x00000000 (0000ms, 16346ms total)
T3050 4467:510 JLINK_ReadReg(FPS20)  returns 0x00000000 (0000ms, 16346ms total)
T3050 4467:510 JLINK_ReadReg(FPS21)  returns 0x00000000 (0000ms, 16346ms total)
T3050 4467:510 JLINK_ReadReg(FPS22)  returns 0x00000000 (0000ms, 16346ms total)
T3050 4467:510 JLINK_ReadReg(FPS23)  returns 0x00000000 (0000ms, 16346ms total)
T3050 4467:510 JLINK_ReadReg(FPS24)  returns 0x00000000 (0000ms, 16346ms total)
T3050 4467:510 JLINK_ReadReg(FPS25)  returns 0x00000000 (0000ms, 16346ms total)
T3050 4467:510 JLINK_ReadReg(FPS26)  returns 0x00000000 (0000ms, 16346ms total)
T3050 4467:510 JLINK_ReadReg(FPS27)  returns 0x00000000 (0000ms, 16346ms total)
T3050 4467:510 JLINK_ReadReg(FPS28)  returns 0x00000000 (0000ms, 16346ms total)
T3050 4467:510 JLINK_ReadReg(FPS29)  returns 0x00000000 (0000ms, 16346ms total)
T3050 4467:510 JLINK_ReadReg(FPS30)  returns 0x00000000 (0000ms, 16346ms total)
T3050 4467:510 JLINK_ReadReg(FPS31)  returns 0x00000000 (0000ms, 16346ms total)
T0E94 4467:512 JLINK_ReadMemEx(0x200009DC, 0x0004 Bytes, ..., Flags = 0x02000000) -- CPU_ReadMem(64 bytes @ 0x200009C0) -- Updating C cache (64 bytes @ 0x200009C0) -- Read from C cache (4 bytes @ 0x200009DC) - Data: 67 47 00 08  returns 0x04 (0002ms, 16348ms total)
T0E94 4467:514 JLINK_ReadMemEx(0x200009D8, 0x0004 Bytes, ..., Flags = 0x02000000) -- Read from C cache (4 bytes @ 0x200009D8) - Data: A8 62 00 08  returns 0x04 (0000ms, 16348ms total)
T0E94 4467:514 JLINK_ReadMemEx(0x200009E4, 0x0004 Bytes, ..., Flags = 0x02000000) -- Read from C cache (4 bytes @ 0x200009E4) - Data: 75 45 00 08  returns 0x04 (0000ms, 16348ms total)
T0E94 4467:514 JLINK_ReadMemEx(0x200009E0, 0x0004 Bytes, ..., Flags = 0x02000000) -- Read from C cache (4 bytes @ 0x200009E0) - Data: 00 00 00 00  returns 0x04 (0000ms, 16348ms total)
T0E94 4467:514 JLINK_ReadMemEx(0x200009EC, 0x0004 Bytes, ..., Flags = 0x02000000) -- Read from C cache (4 bytes @ 0x200009EC) - Data: DF 3B 00 08  returns 0x04 (0000ms, 16348ms total)
T0E94 4467:516 JLINK_ReadMemEx(0x200009E8, 0x0004 Bytes, ..., Flags = 0x02000000) -- Read from C cache (4 bytes @ 0x200009E8) - Data: EF BE AD DE  returns 0x04 (0000ms, 16348ms total)
T0E94 4467:516 JLINK_ReadMemEx(0x200009F4, 0x0004 Bytes, ..., Flags = 0x02000000) -- Read from C cache (4 bytes @ 0x200009F4) - Data: 00 00 00 00  returns 0x04 (0000ms, 16348ms total)
T0E94 4467:560 JLINK_ReadMemEx(0x08005970, 0x003C Bytes, ..., Flags = 0x02000000) -- CPU_ReadMem(128 bytes @ 0x08005940) -- Updating C cache (128 bytes @ 0x08005940) -- Read from C cache (60 bytes @ 0x08005970) - Data: 1F B5 05 20 4F F4 00 72 40 4B CD E9 01 20 00 93 ...  returns 0x3C (0002ms, 16350ms total)
T3050 4468:152 JLINK_ReadMemEx(0x08005972, 0x0002 Bytes, ..., Flags = 0x02000000) -- Read from C cache (2 bytes @ 0x08005972) - Data: 05 20  returns 0x02 (0000ms, 16350ms total)
T3050 4468:152 JLINK_Step() -- Read from C cache (2 bytes @ 0x08005972) -- CPU_ReadMem(4 bytes @ 0xE0001004) -- Simulated  returns 0x00 (0001ms, 16351ms total)
T3050 4468:153 JLINK_ReadReg(R15 (PC))  returns 0x08005974 (0000ms, 16351ms total)
T3050 4468:153 JLINK_ReadReg(XPSR)  returns 0x01000000 (0000ms, 16351ms total)
T3050 4468:153 JLINK_SetBPEx(Addr = 0x08005A36, Type = 0xFFFFFFF2)  returns 0x0000000B (0000ms, 16351ms total)
T3050 4468:153 JLINK_SetBPEx(Addr = 0x08005972, Type = 0xFFFFFFF2)  returns 0x0000000C (0000ms, 16351ms total)
T3050 4468:153 JLINK_SetBPEx(Addr = 0x080058C8, Type = 0xFFFFFFF2)  returns 0x0000000D (0000ms, 16351ms total)
T3050 4468:153 JLINK_Go() -- CPU_WriteMem(4 bytes @ 0xE0002000) -- CPU_WriteMem(4 bytes @ 0xE0002000) -- CPU_WriteMem(4 bytes @ 0xE0002000) -- CPU_ReadMem(4 bytes @ 0xE0001000) -- CPU_WriteMem(4 bytes @ 0xE0001004) (0004ms, 16355ms total)
T3050 4468:258 JLINK_IsHalted()  returns FALSE (0000ms, 16355ms total)
T3050 4468:359 JLINK_IsHalted()  returns FALSE (0001ms, 16356ms total)
T3050 4468:460 JLINK_IsHalted()  returns FALSE (0001ms, 16356ms total)
T3050 4468:561 JLINK_IsHalted()  returns FALSE (0001ms, 16356ms total)
T3050 4468:663 JLINK_IsHalted()  returns FALSE (0001ms, 16356ms total)
T3050 4468:764 JLINK_ReadMemU32(0xE0001004, 0x0001 Items, ...) -- CPU_ReadMem(4 bytes @ 0xE0001004) - Data: 43 7B 15 06  returns 0x01 (0001ms, 16356ms total)
T3050 4468:771 JLINK_IsHalted()  returns FALSE (0001ms, 16357ms total)
T3050 4468:872 JLINK_IsHalted()  returns FALSE (0001ms, 16357ms total)
T3050 4468:974 JLINK_IsHalted()  returns FALSE (0000ms, 16356ms total)
T3050 4469:075 JLINK_IsHalted()  returns FALSE (0000ms, 16356ms total)
T3050 4469:176 JLINK_IsHalted()  returns FALSE (0001ms, 16357ms total)
T3050 4469:277 JLINK_ReadMemU32(0xE0001004, 0x0001 Items, ...) - Data: 43 7B 15 06  returns 0x01 (0000ms, 16356ms total)
T3050 4469:282 JLINK_IsHalted()  returns FALSE (0001ms, 16357ms total)
T3050 4469:384 JLINK_IsHalted()  returns FALSE (0000ms, 16356ms total)
T3050 4469:486 JLINK_IsHalted()  returns FALSE (0000ms, 16356ms total)
T3050 4469:587 JLINK_IsHalted()  returns FALSE (0001ms, 16357ms total)
T3050 4469:689 JLINK_IsHalted()  returns FALSE (0000ms, 16356ms total)
T3050 4469:790 JLINK_IsHalted()  returns FALSE (0000ms, 16356ms total)
T3050 4469:892 JLINK_ReadMemU32(0xE0001004, 0x0001 Items, ...) - Data: 43 7B 15 06  returns 0x01 (0000ms, 16356ms total)
T3050 4469:897 JLINK_IsHalted()  returns FALSE (0000ms, 16356ms total)
T3050 4469:998 JLINK_IsHalted()  returns FALSE (0000ms, 16356ms total)
T3050 4470:099 JLINK_IsHalted()  returns FALSE (0000ms, 16356ms total)
T3050 4470:200 JLINK_IsHalted()  returns FALSE (0000ms, 16356ms total)
T3050 4470:301 JLINK_IsHalted()  returns FALSE (0001ms, 16357ms total)
T3050 4470:402 JLINK_ReadMemU32(0xE0001004, 0x0001 Items, ...) - Data: 43 7B 15 06  returns 0x01 (0000ms, 16356ms total)
T3050 4470:407 JLINK_IsHalted()  returns FALSE (0000ms, 16356ms total)
T3050 4470:509 JLINK_IsHalted()  returns FALSE (0001ms, 16357ms total)
T3050 4470:610 JLINK_IsHalted()  returns FALSE (0000ms, 16356ms total)
T3050 4470:711 JLINK_IsHalted()  returns FALSE (0000ms, 16356ms total)
T3050 4470:812 JLINK_IsHalted()  returns FALSE (0000ms, 16356ms total)
T3050 4470:914 JLINK_IsHalted()  returns FALSE (0001ms, 16357ms total)
T3050 4471:016 JLINK_ReadMemU32(0xE0001004, 0x0001 Items, ...) - Data: 43 7B 15 06  returns 0x01 (0000ms, 16356ms total)
T3050 4471:019 JLINK_IsHalted()  returns FALSE (0001ms, 16357ms total)
T3050 4471:121 JLINK_IsHalted()  returns FALSE (0000ms, 16356ms total)
T3050 4471:222 JLINK_IsHalted()  returns FALSE (0001ms, 16357ms total)
T3050 4471:323 JLINK_IsHalted()  returns FALSE (0001ms, 16357ms total)
T3050 4471:424 JLINK_IsHalted()  returns FALSE (0001ms, 16357ms total)
T3050 4471:526 JLINK_IsHalted()  returns FALSE (0001ms, 16357ms total)
T3050 4471:627 JLINK_ReadMemU32(0xE0001004, 0x0001 Items, ...) - Data: 43 7B 15 06  returns 0x01 (0000ms, 16356ms total)
T3050 4471:633 JLINK_IsHalted()  returns FALSE (0000ms, 16356ms total)
T3050 4471:735 JLINK_IsHalted()  returns FALSE (0000ms, 16356ms total)
T3050 4471:836 JLINK_IsHalted()  returns FALSE (0001ms, 16357ms total)
T3050 4471:937 JLINK_IsHalted()  returns FALSE (0001ms, 16357ms total)
T3050 4472:039 JLINK_IsHalted()  returns FALSE (0001ms, 16357ms total)
T3050 4472:140 JLINK_ReadMemU32(0xE0001004, 0x0001 Items, ...) - Data: 43 7B 15 06  returns 0x01 (0000ms, 16356ms total)
T3050 4472:146 JLINK_IsHalted()  returns FALSE (0001ms, 16357ms total)
T3050 4472:248 JLINK_IsHalted()  returns FALSE (0000ms, 16356ms total)
T3050 4472:349 JLINK_IsHalted()  returns FALSE (0001ms, 16357ms total)
T3050 4472:450 JLINK_IsHalted()  returns FALSE (0000ms, 16356ms total)
T3050 4472:552 JLINK_IsHalted()  returns FALSE (0000ms, 16356ms total)
T3050 4472:653 JLINK_ReadMemU32(0xE0001004, 0x0001 Items, ...) - Data: 43 7B 15 06  returns 0x01 (0000ms, 16356ms total)
T3050 4472:657 JLINK_IsHalted()  returns FALSE (0001ms, 16357ms total)
T3050 4472:759 JLINK_IsHalted()  returns FALSE (0000ms, 16356ms total)
T3050 4472:860 JLINK_IsHalted()  returns FALSE (0000ms, 16356ms total)
T3050 4472:961 JLINK_IsHalted()  returns FALSE (0000ms, 16356ms total)
T3050 4473:062 JLINK_IsHalted()  returns FALSE (0001ms, 16357ms total)
T3050 4473:164 JLINK_IsHalted()  returns FALSE (0000ms, 16356ms total)
T3050 4473:265 JLINK_ReadMemU32(0xE0001004, 0x0001 Items, ...) - Data: 43 7B 15 06  returns 0x01 (0000ms, 16356ms total)
T3050 4473:270 JLINK_IsHalted()  returns FALSE (0001ms, 16357ms total)
T3050 4473:371 JLINK_IsHalted()  returns FALSE (0001ms, 16357ms total)
T3050 4473:473 JLINK_IsHalted()  returns FALSE (0001ms, 16357ms total)
T3050 4473:574 JLINK_IsHalted()  returns FALSE (0001ms, 16357ms total)
T3050 4473:676 JLINK_IsHalted()  returns FALSE (0001ms, 16357ms total)
T3050 4473:778 JLINK_ReadMemU32(0xE0001004, 0x0001 Items, ...) - Data: 43 7B 15 06  returns 0x01 (0000ms, 16356ms total)
T3050 4473:782 JLINK_IsHalted()  returns FALSE (0001ms, 16357ms total)
T3050 4473:885 JLINK_IsHalted()  returns FALSE (0000ms, 16356ms total)
T3050 4473:986 JLINK_IsHalted()  returns FALSE (0001ms, 16357ms total)
T3050 4474:088 JLINK_IsHalted()  returns FALSE (0001ms, 16357ms total)
T3050 4474:189 JLINK_IsHalted()  returns FALSE (0001ms, 16357ms total)
T3050 4474:291 JLINK_IsHalted()  returns FALSE (0000ms, 16356ms total)
T3050 4474:392 JLINK_ReadMemU32(0xE0001004, 0x0001 Items, ...) - Data: 43 7B 15 06  returns 0x01 (0000ms, 16356ms total)
T3050 4474:397 JLINK_IsHalted()  returns FALSE (0001ms, 16357ms total)
T3050 4474:498 JLINK_IsHalted()  returns FALSE (0001ms, 16357ms total)
T3050 4474:600 JLINK_IsHalted()  returns FALSE (0000ms, 16356ms total)
T3050 4474:701 JLINK_IsHalted()  returns FALSE (0001ms, 16357ms total)
T3050 4474:803 JLINK_IsHalted()  returns FALSE (0000ms, 16356ms total)
T3050 4474:904 JLINK_ReadMemU32(0xE0001004, 0x0001 Items, ...) - Data: 43 7B 15 06  returns 0x01 (0000ms, 16356ms total)
T3050 4474:909 JLINK_IsHalted()  returns FALSE (0001ms, 16357ms total)
T3050 4475:011 JLINK_IsHalted()  returns FALSE (0000ms, 16356ms total)
T3050 4475:112 JLINK_IsHalted()  returns FALSE (0001ms, 16357ms total)
T3050 4475:213 JLINK_IsHalted()  returns FALSE (0000ms, 16356ms total)
T3050 4475:314 JLINK_IsHalted()  returns FALSE (0001ms, 16357ms total)
T3050 4475:416 JLINK_IsHalted()  returns FALSE (0001ms, 16357ms total)
T3050 4475:517 JLINK_ReadMemU32(0xE0001004, 0x0001 Items, ...) - Data: 43 7B 15 06  returns 0x01 (0000ms, 16356ms total)
T3050 4475:522 JLINK_IsHalted()  returns FALSE (0001ms, 16357ms total)
T3050 4475:623 JLINK_IsHalted()  returns FALSE (0002ms, 16358ms total)
T3050 4475:725 JLINK_IsHalted()  returns FALSE (0000ms, 16356ms total)
T3050 4475:827 JLINK_IsHalted()  returns FALSE (0000ms, 16356ms total)
T3050 4475:928 JLINK_IsHalted()  returns FALSE (0000ms, 16356ms total)
T3050 4476:029 JLINK_ReadMemU32(0xE0001004, 0x0001 Items, ...) - Data: 43 7B 15 06  returns 0x01 (0000ms, 16356ms total)
T3050 4476:033 JLINK_IsHalted()  returns FALSE (0001ms, 16357ms total)
T3050 4476:135 JLINK_IsHalted()  returns FALSE (0000ms, 16356ms total)
T3050 4476:236 JLINK_IsHalted()  returns FALSE (0001ms, 16357ms total)
T3050 4476:337 JLINK_IsHalted()  returns FALSE (0001ms, 16357ms total)
T3050 4476:438 JLINK_IsHalted()  returns FALSE (0001ms, 16357ms total)
T3050 4476:539 JLINK_IsHalted()  returns FALSE (0001ms, 16357ms total)
T3050 4476:640 JLINK_ReadMemU32(0xE0001004, 0x0001 Items, ...) - Data: 43 7B 15 06  returns 0x01 (0000ms, 16356ms total)
T3050 4476:645 JLINK_IsHalted()  returns FALSE (0001ms, 16357ms total)
T3050 4476:747 JLINK_IsHalted()  returns FALSE (0001ms, 16357ms total)
T3050 4476:849 JLINK_IsHalted()  returns FALSE (0000ms, 16356ms total)
T3050 4476:950 JLINK_IsHalted()  returns FALSE (0001ms, 16357ms total)
T3050 4477:051 JLINK_IsHalted()  returns FALSE (0001ms, 16357ms total)
T3050 4477:153 JLINK_ReadMemU32(0xE0001004, 0x0001 Items, ...) - Data: 43 7B 15 06  returns 0x01 (0000ms, 16356ms total)
T3050 4477:157 JLINK_IsHalted()  returns FALSE (0001ms, 16357ms total)
T3050 4477:259 JLINK_IsHalted()  returns TRUE (0003ms, 16359ms total)
